T4204 000:003.016   SEGGER J-Link V9.64 Log File
T4204 000:003.199   DLL Compiled: Jul 29 2026 13:53:00
T4204 000:003.221   Logging started @ 2026-09-20 10:50
T4204 000:003.241   Process: C:\Users\Makoto\.eclipse\com.renesas.platform_360713257\DebugComp\RA\e2-server-gdb.exe
T4204 000:003.287 - 3.272ms 
T4204 000:003.332 JLINK_GetDLLVersion()
T4204 000:003.372 - 0.039ms returns 96400
T4204 000:105.968 JLINK_OpenEx(...)
T4204 000:125.206   Firmware: J-Link OB-RA4M2 compiled Jul  8 2025 10:15:56
T4204 000:126.207   Firmware: J-Link OB-RA4M2 compiled Jul  8 2025 10:15:56
T4204 000:135.247   Looking for J-Link GUI Server exe at: C:\Users\Makoto\.eclipse\com.renesas.platform_360713257\DebugComp\RA\ARM\Segger_v9.64.0\JLinkGUIServer.exe
T4204 000:135.810   Looking for J-Link GUI Server exe at: \JLinkGUIServer.exe
T4204 000:443.858   Failed to connect to J-Link GUI Server.
T4204 000:444.149   Updating firmware:  J-Link OB-RA4M2 compiled May  6 2026 16:18:23
T4204 000:444.302   Replacing firmware: J-Link OB-RA4M2 compiled Jul  8 2025 10:15:56
T4204 000:446.702   Looking for J-Link GUI Server exe at: C:\Users\Makoto\.eclipse\com.renesas.platform_360713257\DebugComp\RA\ARM\Segger_v9.64.0\JLinkGUIServer.exe
T4204 000:455.182   Looking for J-Link GUI Server exe at: \JLinkGUIServer.exe
T4204 000:760.068   Failed to connect to J-Link GUI Server.
T4204 004:189.194   Waiting for new firmware to boot
T4204 005:212.751   New firmware booted successfully
T4204 005:226.475   Hardware: V1.00
T4204 005:226.508   S/N: 1087266374
T4204 005:226.523   OEM: SEGGER
T4204 005:226.557   Feature(s): None
T4204 005:227.170   Bootloader: 2021 May 14
T4204 005:227.573   USB speed mode: Full speed (12 MBit/s)
T4204 005:227.945   TELNET listener socket opened on port 19021
T4204 005:228.209   WEBSRV WEBSRV_Init(): Starting webserver thread(s)
T4204 005:228.469   WEBSRV Webserver running on local port 19080
T4204 005:228.505 - 5122.531ms returns "O.K."
T4204 005:228.916 JLINK_TIF_Select(JLINKARM_TIF_SWD)
T4204 005:229.404 - 0.488ms returns 0x00
T4204 005:229.433 JLINK_ClrRESET()
T4204 005:229.639 - 0.205ms 
T4204 005:279.960 JLINK_SetSpeed(1500)
T4204 005:280.197 - 0.247ms 
T4204 005:280.248 JLINK_CORESIGHT_Configure(PerformTIFInit=0)
T4204 005:280.664 - 0.429ms returns 0
T4204 005:280.728 JLINK_CORESIGHT_ReadAPDPReg(DP reg 0x00)
T4204 005:281.154   Value=0x6BA02477
T4204 005:281.186 - 0.469ms returns 0
T4204 005:281.224 JLINK_CORESIGHT_WriteAPDPReg(DP reg 0x00, 0x0000001F)
T4204 005:281.448 - 0.224ms returns 0
T4204 005:281.490 JLINK_CORESIGHT_ReadAPDPReg(DP reg 0x00)
T4204 005:281.775   Value=0x6BA02477
T4204 005:281.802 - 0.312ms returns 0
T4204 005:281.830 JLINK_CORESIGHT_WriteAPDPReg(DP reg 0x02, 0x00000000)
T4204 005:282.054 - 0.223ms returns 0
T4204 005:282.091 JLINK_CORESIGHT_WriteAPDPReg(DP reg 0x01, 0x50000000)
T4204 005:282.289 - 0.198ms returns 0
T4204 005:283.010 JLINK_CORESIGHT_ReadAPDPReg(DP reg 0x01)
T4204 005:283.241   Value=0xF0000000
T4204 005:283.265 - 0.255ms returns 0
T4204 005:283.283 JLINK_CORESIGHT_WriteAPDPReg(DP reg 0x00, 0x0000001F)
T4204 005:283.480 - 0.196ms returns 0
T4204 005:283.501 JLINK_CORESIGHT_ReadAPDPReg(DP reg 0x00)
T4204 005:283.720   Value=0x6BA02477
T4204 005:283.744 - 0.243ms returns 0
T4204 005:283.761 JLINK_CORESIGHT_WriteAPDPReg(DP reg 0x01, 0x54000000)
T4204 005:283.963 - 0.201ms returns 0
T4204 005:283.987 JLINK_CORESIGHT_WriteAPDPReg(DP reg 0x01, 0x50000F00)
T4204 005:284.288 - 0.301ms returns 0
T4204 005:284.306 JLINK_CORESIGHT_WriteAPDPReg(DP reg 0x02, 0x01000000)
T4204 005:284.593 - 0.286ms returns 0
T4204 005:284.618 JLINK_CORESIGHT_WriteAPDPReg(AP reg 0x00, 0x80000002)
T4204 005:284.807 - 0.189ms returns 0
T4204 005:284.826 JLINK_CORESIGHT_WriteAPDPReg(AP reg 0x01, 0x80011100)
T4204 005:285.047 - 0.221ms returns 0
T4204 005:285.066 JLINK_CORESIGHT_WriteAPDPReg(AP reg 0x03, 0x000000A5)
T4204 005:285.255 - 0.188ms returns 0
T4204 005:285.279 JLINK_CORESIGHT_WriteAPDPReg(AP reg 0x00, 0x80000002)
T4204 005:285.472 - 0.193ms returns 0
T4204 005:285.495 JLINK_CORESIGHT_WriteAPDPReg(AP reg 0x01, 0x80011100)
T4204 005:285.753 - 0.258ms returns 0
T4204 005:285.777 JLINK_CORESIGHT_ReadAPDPReg(AP reg 0x03)
T4204 005:286.041   Value=0x000000A5
T4204 005:286.060 - 0.282ms returns 0
T4204 005:286.092 JLINK_ClrTMS()
T4204 005:286.170 - 0.083ms 
T4204 005:291.427 JLINK_SetTCK()
T4204 005:291.576 - 0.148ms returns 0
T4204 005:297.539 JLINK_SetRESET()
T4204 005:298.766 - 1.222ms 
T4204 005:499.536 JLINK_CORESIGHT_WriteAPDPReg(AP reg 0x00, 0x80000002)
T4204 005:499.824 - 0.288ms returns 0
T4204 005:499.856 JLINK_CORESIGHT_WriteAPDPReg(AP reg 0x01, 0x80011100)
T4204 005:500.136 - 0.279ms returns 0
T4204 005:500.167 JLINK_CORESIGHT_ReadAPDPReg(AP reg 0x03)
T4204 005:500.480   Value=0x00000000
T4204 005:500.510 - 0.343ms returns 0
T4204 005:500.538 JLINK_CORESIGHT_WriteAPDPReg(AP reg 0x00, 0x80000002)
T4204 005:500.825 - 0.286ms returns 0
T4204 005:500.865 JLINK_CORESIGHT_WriteAPDPReg(AP reg 0x01, 0x80011140)
T4204 005:501.196 - 0.330ms returns 0
T4204 005:501.264 JLINK_CORESIGHT_ReadAPDPReg(AP reg 0x03)
T4204 005:501.589   Value=0x00000002
T4204 005:501.632 - 0.368ms returns 0
T4204 005:501.661 JLINK_CORESIGHT_WriteAPDPReg(AP reg 0x00, 0x80000002)
T4204 005:501.960 - 0.298ms returns 0
T4204 005:502.024 JLINK_CORESIGHT_WriteAPDPReg(AP reg 0x01, 0x80011120)
T4204 005:502.331 - 0.306ms returns 0
T4204 005:502.391 JLINK_CORESIGHT_WriteAPDPReg(AP reg 0x03, 0x00000055)
T4204 005:502.648 - 0.257ms returns 0
T4204 005:503.644 JLINK_CORESIGHT_WriteAPDPReg(AP reg 0x00, 0x80000002)
T4204 005:503.969 - 0.324ms returns 0
T4204 005:504.009 JLINK_CORESIGHT_WriteAPDPReg(AP reg 0x01, 0x80011140)
T4204 005:504.273 - 0.263ms returns 0
T4204 005:504.313 JLINK_CORESIGHT_ReadAPDPReg(AP reg 0x03)
T4204 005:504.672   Value=0x00000002
T4204 005:504.709 - 0.396ms returns 0
T4204 005:504.731 JLINK_CORESIGHT_ReadAPDPReg(AP reg 0x03)
T4204 005:505.073   Value=0x00000002
T4204 005:505.105 - 0.374ms returns 0
T4204 005:505.127 JLINK_CORESIGHT_ReadAPDPReg(AP reg 0x03)
T4204 005:505.430   Value=0x00000002
T4204 005:505.461 - 0.333ms returns 0
T4204 005:505.478 JLINK_CORESIGHT_ReadAPDPReg(AP reg 0x03)
T4204 005:505.801   Value=0x00000002
T4204 005:505.831 - 0.352ms returns 0
T4204 005:505.848 JLINK_CORESIGHT_ReadAPDPReg(AP reg 0x03)
T4204 005:506.164   Value=0x00000002
T4204 005:506.194 - 0.346ms returns 0
T4204 005:506.211 JLINK_CORESIGHT_ReadAPDPReg(AP reg 0x03)
T4204 005:506.504   Value=0x00000002
T4204 005:506.537 - 0.325ms returns 0
T4204 005:506.559 JLINK_CORESIGHT_ReadAPDPReg(AP reg 0x03)
T4204 005:506.929   Value=0x00000002
T4204 005:506.959 - 0.400ms returns 0
T4204 005:506.976 JLINK_CORESIGHT_ReadAPDPReg(AP reg 0x03)
T4204 005:507.304   Value=0x00000002
T4204 005:507.333 - 0.357ms returns 0
T4204 005:507.351 JLINK_CORESIGHT_ReadAPDPReg(AP reg 0x03)
T4204 005:507.651   Value=0x00000002
T4204 005:507.681 - 0.330ms returns 0
T4204 005:507.698 JLINK_CORESIGHT_ReadAPDPReg(AP reg 0x03)
T4204 005:507.994   Value=0x00000002
T4204 005:508.023 - 0.324ms returns 0
T4204 005:508.041 JLINK_CORESIGHT_ReadAPDPReg(AP reg 0x03)
T4204 005:508.344   Value=0x00000002
T4204 005:508.374 - 0.333ms returns 0
T4204 005:508.392 JLINK_CORESIGHT_ReadAPDPReg(AP reg 0x03)
T4204 005:508.713   Value=0x00000002
T4204 005:508.737 - 0.345ms returns 0
T4204 005:508.802 JLINK_CORESIGHT_ReadAPDPReg(AP reg 0x03)
T4204 005:509.187   Value=0x00000002
T4204 005:509.226 - 0.423ms returns 0
T4204 005:509.249 JLINK_CORESIGHT_ReadAPDPReg(AP reg 0x03)
T4204 005:509.667   Value=0x00000002
T4204 005:509.697 - 0.448ms returns 0
T4204 005:509.715 JLINK_CORESIGHT_ReadAPDPReg(AP reg 0x03)
T4204 005:510.090   Value=0x00000002
T4204 005:510.121 - 0.404ms returns 0
T4204 005:510.140 JLINK_CORESIGHT_ReadAPDPReg(AP reg 0x03)
T4204 005:510.416   Value=0x00000002
T4204 005:510.447 - 0.306ms returns 0
T4204 005:510.467 JLINK_CORESIGHT_ReadAPDPReg(AP reg 0x03)
T4204 005:510.805   Value=0x00000002
T4204 005:510.837 - 0.370ms returns 0
T4204 005:510.852 JLINK_CORESIGHT_ReadAPDPReg(AP reg 0x03)
T4204 005:511.195   Value=0x00000002
T4204 005:511.233 - 0.380ms returns 0
T4204 005:511.254 JLINK_CORESIGHT_ReadAPDPReg(AP reg 0x03)
T4204 005:511.552   Value=0x00000002
T4204 005:511.581 - 0.327ms returns 0
T4204 005:511.601 JLINK_CORESIGHT_ReadAPDPReg(AP reg 0x03)
T4204 005:511.976   Value=0x00000002
T4204 005:512.000 - 0.398ms returns 0
T4204 005:512.015 JLINK_CORESIGHT_ReadAPDPReg(AP reg 0x03)
T4204 005:512.334   Value=0x00000002
T4204 005:512.357 - 0.342ms returns 0
T4204 005:512.372 JLINK_CORESIGHT_ReadAPDPReg(AP reg 0x03)
T4204 005:512.674   Value=0x00000002
T4204 005:512.697 - 0.325ms returns 0
T4204 005:512.711 JLINK_CORESIGHT_ReadAPDPReg(AP reg 0x03)
T4204 005:512.986   Value=0x00000002
T4204 005:513.017 - 0.305ms returns 0
T4204 005:513.037 JLINK_CORESIGHT_ReadAPDPReg(AP reg 0x03)
T4204 005:513.325   Value=0x00000002
T4204 005:513.353 - 0.316ms returns 0
T4204 005:513.373 JLINK_CORESIGHT_ReadAPDPReg(AP reg 0x03)
T4204 005:513.659   Value=0x00000002
T4204 005:513.691 - 0.317ms returns 0
T4204 005:513.711 JLINK_CORESIGHT_ReadAPDPReg(AP reg 0x03)
T4204 005:514.008   Value=0x00000002
T4204 005:514.059 - 0.348ms returns 0
T4204 005:514.082 JLINK_CORESIGHT_ReadAPDPReg(AP reg 0x03)
T4204 005:514.400   Value=0x00000002
T4204 005:514.431 - 0.349ms returns 0
T4204 005:514.454 JLINK_CORESIGHT_ReadAPDPReg(AP reg 0x03)
T4204 005:514.760   Value=0x00000002
T4204 005:514.784 - 0.330ms returns 0
T4204 005:514.799 JLINK_CORESIGHT_ReadAPDPReg(AP reg 0x03)
T4204 005:515.144   Value=0x00000000
T4204 005:515.165 - 0.366ms returns 0
T4204 005:515.181 JLINK_CORESIGHT_WriteAPDPReg(AP reg 0x00, 0x80000002)
T4204 005:515.435 - 0.254ms returns 0
T4204 005:515.455 JLINK_CORESIGHT_WriteAPDPReg(AP reg 0x01, 0x80011130)
T4204 005:515.700 - 0.243ms returns 0
T4204 005:515.733 JLINK_CORESIGHT_ReadAPDPReg(AP reg 0x03)
T4204 005:516.048   Value=0x000000C6
T4204 005:516.068 - 0.335ms returns 0
T4204 005:516.087 JLINK_CORESIGHT_WriteAPDPReg(AP reg 0x00, 0x80000002)
T4204 005:516.323 - 0.236ms returns 0
T4204 005:516.344 JLINK_CORESIGHT_WriteAPDPReg(AP reg 0x01, 0x80011140)
T4204 005:516.621 - 0.277ms returns 0
T4204 005:516.639 JLINK_CORESIGHT_ReadAPDPReg(AP reg 0x03)
T4204 005:516.952   Value=0x00000002
T4204 005:516.974 - 0.334ms returns 0
T4204 005:516.987 JLINK_CORESIGHT_WriteAPDPReg(AP reg 0x00, 0x80000002)
T4204 005:517.212 - 0.224ms returns 0
T4204 005:517.235 JLINK_CORESIGHT_WriteAPDPReg(AP reg 0x01, 0x80011120)
T4204 005:517.455 - 0.219ms returns 0
T4204 005:517.473 JLINK_CORESIGHT_WriteAPDPReg(AP reg 0x03, 0x3A010001)
T4204 005:517.674 - 0.200ms returns 0
T4204 005:517.689 JLINK_CORESIGHT_WriteAPDPReg(AP reg 0x00, 0x80000002)
T4204 005:517.941 - 0.253ms returns 0
T4204 005:517.956 JLINK_CORESIGHT_WriteAPDPReg(AP reg 0x01, 0x80011140)
T4204 005:518.149 - 0.193ms returns 0
T4204 005:518.164 JLINK_CORESIGHT_ReadAPDPReg(AP reg 0x03)
T4204 005:518.411   Value=0x00000002
T4204 005:518.425 - 0.260ms returns 0
T4204 005:518.434 JLINK_CORESIGHT_WriteAPDPReg(AP reg 0x00, 0x80000002)
T4204 005:518.626 - 0.192ms returns 0
T4204 005:518.640 JLINK_CORESIGHT_WriteAPDPReg(AP reg 0x01, 0x80011120)
T4204 005:518.833 - 0.192ms returns 0
T4204 005:518.849 JLINK_CORESIGHT_WriteAPDPReg(AP reg 0x03, 0x000003C5)
T4204 005:519.080 - 0.231ms returns 0
T4204 005:519.097 JLINK_CORESIGHT_WriteAPDPReg(AP reg 0x00, 0x80000002)
T4204 005:519.491 - 0.387ms returns 0
T4204 005:519.740 JLINK_CORESIGHT_WriteAPDPReg(AP reg 0x01, 0x80011140)
T4204 005:520.625 - 0.885ms returns 0
T4204 005:520.813 JLINK_CORESIGHT_ReadAPDPReg(AP reg 0x03)
T4204 005:521.924   Value=0x00000000
T4204 005:522.137 - 1.324ms returns 0
T4204 005:522.281 JLINK_CORESIGHT_WriteAPDPReg(AP reg 0x00, 0x80000002)
T4204 005:523.170 - 0.889ms returns 0
T4204 005:523.371 JLINK_CORESIGHT_WriteAPDPReg(AP reg 0x01, 0x80011130)
T4204 005:524.226 - 0.856ms returns 0
T4204 005:524.369 JLINK_CORESIGHT_ReadAPDPReg(AP reg 0x03)
T4204 005:525.370   Value=0x3A2A0081
T4204 005:525.563 - 1.193ms returns 0
T4204 005:525.701 JLINK_CORESIGHT_WriteAPDPReg(AP reg 0x00, 0x80000002)
T4204 005:526.518 - 0.816ms returns 0
T4204 005:526.757 JLINK_CORESIGHT_WriteAPDPReg(AP reg 0x01, 0x80011140)
T4204 005:527.843 - 1.085ms returns 0
T4204 005:528.137 JLINK_CORESIGHT_ReadAPDPReg(AP reg 0x03)
T4204 005:529.121   Value=0x00000000
T4204 005:529.237 - 1.103ms returns 0
T4204 005:532.069 JLINK_CORESIGHT_WriteAPDPReg(AP reg 0x00, 0x80000002)
T4204 005:532.701 - 0.633ms returns 0
T4204 005:532.769 JLINK_CORESIGHT_WriteAPDPReg(AP reg 0x01, 0x80011130)
T4204 005:533.178 - 0.408ms returns 0
T4204 005:533.245 JLINK_CORESIGHT_ReadAPDPReg(AP reg 0x03)
T4204 005:533.670   Value=0x808D5B00
T4204 005:533.737 - 0.492ms returns 0
T4204 005:533.772 JLINK_CORESIGHT_WriteAPDPReg(AP reg 0x00, 0x80000002)
T4204 005:534.141 - 0.367ms returns 0
T4204 005:534.229 JLINK_CORESIGHT_WriteAPDPReg(AP reg 0x01, 0x80011140)
T4204 005:534.629 - 0.399ms returns 0
T4204 005:534.720 JLINK_CORESIGHT_ReadAPDPReg(AP reg 0x03)
T4204 005:535.171   Value=0x00000000
T4204 005:535.242 - 0.521ms returns 0
T4204 005:535.290 JLINK_CORESIGHT_WriteAPDPReg(AP reg 0x00, 0x80000002)
T4204 005:535.673 - 0.382ms returns 0
T4204 005:535.744 JLINK_CORESIGHT_WriteAPDPReg(AP reg 0x01, 0x80011130)
T4204 005:536.137 - 0.392ms returns 0
T4204 005:536.222 JLINK_CORESIGHT_ReadAPDPReg(AP reg 0x03)
T4204 005:536.689   Value=0x0406070A
T4204 005:536.760 - 0.538ms returns 0
T4204 005:536.805 JLINK_CORESIGHT_WriteAPDPReg(AP reg 0x00, 0x80000002)
T4204 005:537.187 - 0.382ms returns 0
T4204 005:537.257 JLINK_CORESIGHT_WriteAPDPReg(AP reg 0x01, 0x80011140)
T4204 005:537.613 - 0.357ms returns 0
T4204 005:537.680 JLINK_CORESIGHT_ReadAPDPReg(AP reg 0x03)
T4204 005:538.201   Value=0x00000000
T4204 005:538.276 - 0.596ms returns 0
T4204 005:538.324 JLINK_CORESIGHT_WriteAPDPReg(AP reg 0x00, 0x80000002)
T4204 005:538.757 - 0.433ms returns 0
T4204 005:538.805 JLINK_CORESIGHT_WriteAPDPReg(AP reg 0x01, 0x80011130)
T4204 005:539.145 - 0.341ms returns 0
T4204 005:539.189 JLINK_CORESIGHT_ReadAPDPReg(AP reg 0x03)
T4204 005:539.608   Value=0x3254540B
T4204 005:539.655 - 0.465ms returns 0
T4204 005:539.685 JLINK_CORESIGHT_WriteAPDPReg(AP reg 0x00, 0x80000002)
T4204 005:540.113 - 0.428ms returns 0
T4204 005:540.159 JLINK_CORESIGHT_WriteAPDPReg(AP reg 0x01, 0x80011140)
T4204 005:540.505 - 0.327ms returns 0
T4204 005:540.553 JLINK_CORESIGHT_ReadAPDPReg(AP reg 0x03)
T4204 005:541.019   Value=0x00000000
T4204 005:541.066 - 0.513ms returns 0
T4204 005:541.096 JLINK_CORESIGHT_WriteAPDPReg(AP reg 0x00, 0x80000002)
T4204 005:541.438 - 0.342ms returns 0
T4204 005:541.485 JLINK_CORESIGHT_WriteAPDPReg(AP reg 0x01, 0x80011130)
T4204 005:541.801 - 0.316ms returns 0
T4204 005:541.835 JLINK_CORESIGHT_ReadAPDPReg(AP reg 0x03)
T4204 005:542.170   Value=0x5443AC59
T4204 005:542.205 - 0.371ms returns 0
T4204 005:542.229 JLINK_CORESIGHT_WriteAPDPReg(AP reg 0x00, 0x80000002)
T4204 005:542.538 - 0.310ms returns 0
T4204 005:542.573 JLINK_CORESIGHT_WriteAPDPReg(AP reg 0x01, 0x80011140)
T4204 005:542.867 - 0.293ms returns 0
T4204 005:542.903 JLINK_CORESIGHT_ReadAPDPReg(AP reg 0x03)
T4204 005:543.231   Value=0x00000000
T4204 005:543.267 - 0.363ms returns 0
T4204 005:543.289 JLINK_CORESIGHT_WriteAPDPReg(AP reg 0x00, 0x80000002)
T4204 005:543.574 - 0.285ms returns 0
T4204 005:543.610 JLINK_CORESIGHT_WriteAPDPReg(AP reg 0x01, 0x80011130)
T4204 005:543.903 - 0.292ms returns 0
T4204 005:543.938 JLINK_CORESIGHT_ReadAPDPReg(AP reg 0x03)
T4204 005:544.288   Value=0x34325736
T4204 005:544.342 - 0.404ms returns 0
T4204 005:544.365 JLINK_CORESIGHT_WriteAPDPReg(AP reg 0x00, 0x80000002)
T4204 005:544.639 - 0.274ms returns 0
T4204 005:544.676 JLINK_CORESIGHT_WriteAPDPReg(AP reg 0x01, 0x80011140)
T4204 005:544.977 - 0.301ms returns 0
T4204 005:545.014 JLINK_CORESIGHT_ReadAPDPReg(AP reg 0x03)
T4204 005:545.399   Value=0x00000000
T4204 005:545.476 - 0.461ms returns 0
T4204 005:545.509 JLINK_CORESIGHT_WriteAPDPReg(AP reg 0x00, 0x80000002)
T4204 005:545.909 - 0.400ms returns 0
T4204 005:545.959 JLINK_CORESIGHT_WriteAPDPReg(AP reg 0x01, 0x80011130)
T4204 005:546.356 - 0.397ms returns 0
T4204 005:546.410 JLINK_CORESIGHT_ReadAPDPReg(AP reg 0x03)
T4204 005:546.789   Value=0x920A2D30
T4204 005:546.839 - 0.429ms returns 0
T4204 005:546.873 JLINK_CORESIGHT_WriteAPDPReg(AP reg 0x00, 0x80000002)
T4204 005:547.183 - 0.309ms returns 0
T4204 005:547.237 JLINK_CORESIGHT_WriteAPDPReg(AP reg 0x01, 0x80011140)
T4204 005:547.541 - 0.304ms returns 0
T4204 005:547.580 JLINK_CORESIGHT_ReadAPDPReg(AP reg 0x03)
T4204 005:547.980   Value=0x00000000
T4204 005:548.015 - 0.435ms returns 0
T4204 005:548.040 JLINK_CORESIGHT_WriteAPDPReg(AP reg 0x00, 0x80000002)
T4204 005:548.316 - 0.275ms returns 0
T4204 005:548.350 JLINK_CORESIGHT_WriteAPDPReg(AP reg 0x01, 0x80011130)
T4204 005:548.627 - 0.277ms returns 0
T4204 005:548.657 JLINK_CORESIGHT_ReadAPDPReg(AP reg 0x03)
T4204 005:548.967   Value=0x4B37526E
T4204 005:548.996 - 0.339ms returns 0
T4204 005:549.014 JLINK_CORESIGHT_WriteAPDPReg(AP reg 0x00, 0x80000002)
T4204 005:549.266 - 0.252ms returns 0
T4204 005:549.293 JLINK_CORESIGHT_WriteAPDPReg(AP reg 0x01, 0x80011140)
T4204 005:549.543 - 0.249ms returns 0
T4204 005:549.571 JLINK_CORESIGHT_ReadAPDPReg(AP reg 0x03)
T4204 005:549.873   Value=0x00000000
T4204 005:549.901 - 0.330ms returns 0
T4204 005:549.920 JLINK_CORESIGHT_WriteAPDPReg(AP reg 0x00, 0x80000002)
T4204 005:550.179 - 0.258ms returns 0
T4204 005:550.207 JLINK_CORESIGHT_WriteAPDPReg(AP reg 0x01, 0x80011130)
T4204 005:550.490 - 0.283ms returns 0
T4204 005:550.518 JLINK_CORESIGHT_ReadAPDPReg(AP reg 0x03)
T4204 005:550.825   Value=0x31503841
T4204 005:550.853 - 0.335ms returns 0
T4204 005:550.871 JLINK_CORESIGHT_WriteAPDPReg(AP reg 0x00, 0x80000002)
T4204 005:551.164 - 0.292ms returns 0
T4204 005:551.193 JLINK_CORESIGHT_WriteAPDPReg(AP reg 0x01, 0x80011140)
T4204 005:551.441 - 0.248ms returns 0
T4204 005:551.470 JLINK_CORESIGHT_ReadAPDPReg(AP reg 0x03)
T4204 005:551.770   Value=0x00000000
T4204 005:551.797 - 0.327ms returns 0
T4204 005:551.816 JLINK_CORESIGHT_WriteAPDPReg(AP reg 0x00, 0x80000002)
T4204 005:552.079 - 0.263ms returns 0
T4204 005:552.107 JLINK_CORESIGHT_WriteAPDPReg(AP reg 0x01, 0x80011130)
T4204 005:552.362 - 0.255ms returns 0
T4204 005:552.390 JLINK_CORESIGHT_ReadAPDPReg(AP reg 0x03)
T4204 005:552.695   Value=0x434C464B
T4204 005:552.723 - 0.333ms returns 0
T4204 005:552.741 JLINK_CORESIGHT_WriteAPDPReg(AP reg 0x00, 0x80000002)
T4204 005:552.995 - 0.254ms returns 0
T4204 005:553.024 JLINK_CORESIGHT_WriteAPDPReg(AP reg 0x01, 0x80011140)
T4204 005:553.278 - 0.254ms returns 0
T4204 005:553.315 JLINK_CORESIGHT_ReadAPDPReg(AP reg 0x03)
T4204 005:553.653   Value=0x00000000
T4204 005:553.683 - 0.368ms returns 0
T4204 005:553.701 JLINK_CORESIGHT_WriteAPDPReg(AP reg 0x00, 0x80000002)
T4204 005:553.970 - 0.268ms returns 0
T4204 005:554.010 JLINK_CORESIGHT_WriteAPDPReg(AP reg 0x01, 0x80011130)
T4204 005:554.257 - 0.247ms returns 0
T4204 005:554.293 JLINK_CORESIGHT_ReadAPDPReg(AP reg 0x03)
T4204 005:554.587   Value=0x20204341
T4204 005:554.616 - 0.322ms returns 0
T4204 005:554.635 JLINK_CORESIGHT_WriteAPDPReg(AP reg 0x00, 0x80000002)
T4204 005:554.880 - 0.245ms returns 0
T4204 005:554.908 JLINK_CORESIGHT_WriteAPDPReg(AP reg 0x01, 0x80011140)
T4204 005:555.163 - 0.255ms returns 0
T4204 005:555.193 JLINK_CORESIGHT_ReadAPDPReg(AP reg 0x03)
T4204 005:555.489   Value=0x00000000
T4204 005:555.517 - 0.324ms returns 0
T4204 005:555.535 JLINK_CORESIGHT_WriteAPDPReg(AP reg 0x00, 0x80000002)
T4204 005:555.791 - 0.256ms returns 0
T4204 005:555.817 JLINK_CORESIGHT_WriteAPDPReg(AP reg 0x01, 0x80011130)
T4204 005:556.093 - 0.275ms returns 0
T4204 005:556.129 JLINK_CORESIGHT_ReadAPDPReg(AP reg 0x03)
T4204 005:556.433   Value=0x00036C20
T4204 005:556.468 - 0.339ms returns 0
T4204 005:557.453 JLINK_CORESIGHT_WriteAPDPReg(AP reg 0x00, 0x80000002)
T4204 005:557.709 - 0.257ms returns 0
T4204 005:557.733 JLINK_CORESIGHT_WriteAPDPReg(AP reg 0x01, 0x80011140)
T4204 005:557.985 - 0.251ms returns 0
T4204 005:558.009 JLINK_CORESIGHT_ReadAPDPReg(AP reg 0x03)
T4204 005:558.300   Value=0x00000002
T4204 005:558.327 - 0.318ms returns 0
T4204 005:558.343 JLINK_CORESIGHT_WriteAPDPReg(AP reg 0x00, 0x80000002)
T4204 005:558.583 - 0.239ms returns 0
T4204 005:558.606 JLINK_CORESIGHT_WriteAPDPReg(AP reg 0x01, 0x80011120)
T4204 005:558.838 - 0.231ms returns 0
T4204 005:558.861 JLINK_CORESIGHT_WriteAPDPReg(AP reg 0x03, 0x52020001)
T4204 005:559.095 - 0.233ms returns 0
T4204 005:559.119 JLINK_CORESIGHT_WriteAPDPReg(AP reg 0x00, 0x80000002)
T4204 005:559.354 - 0.235ms returns 0
T4204 005:559.377 JLINK_CORESIGHT_WriteAPDPReg(AP reg 0x01, 0x80011140)
T4204 005:559.611 - 0.233ms returns 0
T4204 005:559.634 JLINK_CORESIGHT_ReadAPDPReg(AP reg 0x03)
T4204 005:559.972   Value=0x00000002
T4204 005:559.996 - 0.362ms returns 0
T4204 005:560.012 JLINK_CORESIGHT_WriteAPDPReg(AP reg 0x00, 0x80000002)
T4204 005:560.247 - 0.235ms returns 0
T4204 005:560.271 JLINK_CORESIGHT_WriteAPDPReg(AP reg 0x01, 0x80011120)
T4204 005:560.505 - 0.234ms returns 0
T4204 005:560.529 JLINK_CORESIGHT_WriteAPDPReg(AP reg 0x03, 0x0003A705)
T4204 005:560.761 - 0.232ms returns 0
T4204 005:560.785 JLINK_CORESIGHT_WriteAPDPReg(AP reg 0x00, 0x80000002)
T4204 005:561.085 - 0.299ms returns 0
T4204 005:561.126 JLINK_CORESIGHT_WriteAPDPReg(AP reg 0x01, 0x80011140)
T4204 005:561.387 - 0.261ms returns 0
T4204 005:561.414 JLINK_CORESIGHT_ReadAPDPReg(AP reg 0x03)
T4204 005:561.700   Value=0x00000002
T4204 005:561.723 - 0.309ms returns 0
T4204 005:561.739 JLINK_CORESIGHT_ReadAPDPReg(AP reg 0x03)
T4204 005:562.038   Value=0x00000002
T4204 005:562.061 - 0.321ms returns 0
T4204 005:562.076 JLINK_CORESIGHT_ReadAPDPReg(AP reg 0x03)
T4204 005:562.369   Value=0x00000002
T4204 005:562.393 - 0.317ms returns 0
T4204 005:562.409 JLINK_CORESIGHT_ReadAPDPReg(AP reg 0x03)
T4204 005:562.683   Value=0x00000002
T4204 005:562.703 - 0.295ms returns 0
T4204 005:562.717 JLINK_CORESIGHT_ReadAPDPReg(AP reg 0x03)
T4204 005:562.975   Value=0x00000002
T4204 005:562.994 - 0.277ms returns 0
T4204 005:563.007 JLINK_CORESIGHT_ReadAPDPReg(AP reg 0x03)
T4204 005:563.272   Value=0x00000002
T4204 005:563.291 - 0.284ms returns 0
T4204 005:563.305 JLINK_CORESIGHT_ReadAPDPReg(AP reg 0x03)
T4204 005:563.581   Value=0x00000002
T4204 005:563.602 - 0.297ms returns 0
T4204 005:563.615 JLINK_CORESIGHT_ReadAPDPReg(AP reg 0x03)
T4204 005:563.959   Value=0x00000002
T4204 005:563.981 - 0.366ms returns 0
T4204 005:563.995 JLINK_CORESIGHT_ReadAPDPReg(AP reg 0x03)
T4204 005:564.268   Value=0x00000002
T4204 005:564.289 - 0.293ms returns 0
T4204 005:564.302 JLINK_CORESIGHT_ReadAPDPReg(AP reg 0x03)
T4204 005:564.582   Value=0x00000002
T4204 005:564.604 - 0.302ms returns 0
T4204 005:564.619 JLINK_CORESIGHT_ReadAPDPReg(AP reg 0x03)
T4204 005:564.965   Value=0x00000000
T4204 005:564.993 - 0.373ms returns 0
T4204 005:565.009 JLINK_CORESIGHT_WriteAPDPReg(AP reg 0x00, 0x80000002)
T4204 005:565.299 - 0.289ms returns 0
T4204 005:565.321 JLINK_CORESIGHT_WriteAPDPReg(AP reg 0x01, 0x80011130)
T4204 005:565.549 - 0.228ms returns 0
T4204 005:565.570 JLINK_CORESIGHT_ReadAPDPReg(AP reg 0x03)
T4204 005:565.845   Value=0x52020081
T4204 005:565.865 - 0.295ms returns 0
T4204 005:565.879 JLINK_CORESIGHT_WriteAPDPReg(AP reg 0x00, 0x80000002)
T4204 005:566.105 - 0.226ms returns 0
T4204 005:566.131 JLINK_CORESIGHT_WriteAPDPReg(AP reg 0x01, 0x80011140)
T4204 005:566.369 - 0.237ms returns 0
T4204 005:566.411 JLINK_CORESIGHT_ReadAPDPReg(AP reg 0x03)
T4204 005:566.698   Value=0x00000000
T4204 005:566.733 - 0.321ms returns 0
T4204 005:566.753 JLINK_CORESIGHT_WriteAPDPReg(AP reg 0x00, 0x80000002)
T4204 005:567.009 - 0.256ms returns 0
T4204 005:567.037 JLINK_CORESIGHT_WriteAPDPReg(AP reg 0x01, 0x80011130)
T4204 005:567.276 - 0.239ms returns 0
T4204 005:567.306 JLINK_CORESIGHT_ReadAPDPReg(AP reg 0x03)
T4204 005:567.598   Value=0x0003A507
T4204 005:567.632 - 0.325ms returns 0
T4204 005:567.657 JLINK_CORESIGHT_WriteAPDPReg(AP reg 0x00, 0x80000002)
T4204 005:567.961 - 0.303ms returns 0
T4204 005:567.987 JLINK_CORESIGHT_WriteAPDPReg(AP reg 0x01, 0x80011140)
T4204 005:568.243 - 0.255ms returns 0
T4204 005:568.276 JLINK_CORESIGHT_ReadAPDPReg(AP reg 0x03)
T4204 005:568.569   Value=0x00000002
T4204 005:568.611 - 0.334ms returns 0
T4204 005:568.637 JLINK_CORESIGHT_WriteAPDPReg(AP reg 0x00, 0x80000002)
T4204 005:568.887 - 0.249ms returns 0
T4204 005:568.917 JLINK_CORESIGHT_WriteAPDPReg(AP reg 0x01, 0x80011120)
T4204 005:569.155 - 0.237ms returns 0
T4204 005:569.183 JLINK_CORESIGHT_WriteAPDPReg(AP reg 0x03, 0x15090001)
T4204 005:569.416 - 0.232ms returns 0
T4204 005:569.443 JLINK_CORESIGHT_WriteAPDPReg(AP reg 0x00, 0x80000002)
T4204 005:569.674 - 0.230ms returns 0
T4204 005:569.701 JLINK_CORESIGHT_WriteAPDPReg(AP reg 0x01, 0x80011140)
T4204 005:569.950 - 0.249ms returns 0
T4204 005:569.974 JLINK_CORESIGHT_ReadAPDPReg(AP reg 0x03)
T4204 005:570.253   Value=0x00000002
T4204 005:570.277 - 0.303ms returns 0
T4204 005:570.295 JLINK_CORESIGHT_WriteAPDPReg(AP reg 0x00, 0x80000002)
T4204 005:570.513 - 0.218ms returns 0
T4204 005:570.536 JLINK_CORESIGHT_WriteAPDPReg(AP reg 0x01, 0x80011120)
T4204 005:570.762 - 0.226ms returns 0
T4204 005:570.784 JLINK_CORESIGHT_WriteAPDPReg(AP reg 0x03, 0x40F0C902)
T4204 005:571.080 - 0.296ms returns 0
T4204 005:571.111 JLINK_CORESIGHT_WriteAPDPReg(AP reg 0x00, 0x80000002)
T4204 005:571.369 - 0.258ms returns 0
T4204 005:571.393 JLINK_CORESIGHT_WriteAPDPReg(AP reg 0x01, 0x80011140)
T4204 005:571.619 - 0.226ms returns 0
T4204 005:571.647 JLINK_CORESIGHT_ReadAPDPReg(AP reg 0x03)
T4204 005:572.000   Value=0x00000002
T4204 005:572.025 - 0.379ms returns 0
T4204 005:572.045 JLINK_CORESIGHT_WriteAPDPReg(AP reg 0x00, 0x80000002)
T4204 005:572.278 - 0.233ms returns 0
T4204 005:572.306 JLINK_CORESIGHT_WriteAPDPReg(AP reg 0x01, 0x80011120)
T4204 005:572.553 - 0.247ms returns 0
T4204 005:572.577 JLINK_CORESIGHT_WriteAPDPReg(AP reg 0x03, 0x4FF0C902)
T4204 005:572.811 - 0.234ms returns 0
T4204 005:572.836 JLINK_CORESIGHT_WriteAPDPReg(AP reg 0x00, 0x80000002)
T4204 005:573.069 - 0.232ms returns 0
T4204 005:573.093 JLINK_CORESIGHT_WriteAPDPReg(AP reg 0x01, 0x80011140)
T4204 005:573.315 - 0.221ms returns 0
T4204 005:573.339 JLINK_CORESIGHT_ReadAPDPReg(AP reg 0x03)
T4204 005:573.613   Value=0x00000002
T4204 005:573.641 - 0.301ms returns 0
T4204 005:573.661 JLINK_CORESIGHT_WriteAPDPReg(AP reg 0x00, 0x80000002)
T4204 005:573.957 - 0.296ms returns 0
T4204 005:573.977 JLINK_CORESIGHT_WriteAPDPReg(AP reg 0x01, 0x80011120)
T4204 005:574.197 - 0.220ms returns 0
T4204 005:574.214 JLINK_CORESIGHT_WriteAPDPReg(AP reg 0x03, 0x000003DD)
T4204 005:574.424 - 0.210ms returns 0
T4204 005:574.441 JLINK_CORESIGHT_WriteAPDPReg(AP reg 0x00, 0x80000002)
T4204 005:574.651 - 0.209ms returns 0
T4204 005:574.669 JLINK_CORESIGHT_WriteAPDPReg(AP reg 0x01, 0x80011140)
T4204 005:574.949 - 0.280ms returns 0
T4204 005:574.967 JLINK_CORESIGHT_ReadAPDPReg(AP reg 0x03)
T4204 005:575.227   Value=0x00000002
T4204 005:575.245 - 0.278ms returns 0
T4204 005:575.257 JLINK_CORESIGHT_ReadAPDPReg(AP reg 0x03)
T4204 005:575.525   Value=0x00000002
T4204 005:575.543 - 0.286ms returns 0
T4204 005:575.555 JLINK_CORESIGHT_ReadAPDPReg(AP reg 0x03)
T4204 005:575.824   Value=0x00000002
T4204 005:575.842 - 0.287ms returns 0
T4204 005:575.855 JLINK_CORESIGHT_ReadAPDPReg(AP reg 0x03)
T4204 005:576.126   Value=0x00000002
T4204 005:576.148 - 0.292ms returns 0
T4204 005:576.161 JLINK_CORESIGHT_ReadAPDPReg(AP reg 0x03)
T4204 005:576.432   Value=0x00000002
T4204 005:576.452 - 0.291ms returns 0
T4204 005:576.465 JLINK_CORESIGHT_ReadAPDPReg(AP reg 0x03)
T4204 005:576.724   Value=0x00000002
T4204 005:576.742 - 0.277ms returns 0
T4204 005:576.753 JLINK_CORESIGHT_ReadAPDPReg(AP reg 0x03)
T4204 005:577.087   Value=0x00000002
T4204 005:577.118 - 0.364ms returns 0
T4204 005:577.136 JLINK_CORESIGHT_ReadAPDPReg(AP reg 0x03)
T4204 005:577.447   Value=0x00000000
T4204 005:577.476 - 0.340ms returns 0
T4204 005:577.495 JLINK_CORESIGHT_WriteAPDPReg(AP reg 0x00, 0x80000002)
T4204 005:577.711 - 0.216ms returns 0
T4204 005:577.729 JLINK_CORESIGHT_WriteAPDPReg(AP reg 0x01, 0x80011130)
T4204 005:577.959 - 0.229ms returns 0
T4204 005:577.986 JLINK_CORESIGHT_ReadAPDPReg(AP reg 0x03)
T4204 005:578.262   Value=0x15110081
T4204 005:578.283 - 0.297ms returns 0
T4204 005:578.297 JLINK_CORESIGHT_WriteAPDPReg(AP reg 0x00, 0x80000002)
T4204 005:578.523 - 0.226ms returns 0
T4204 005:578.551 JLINK_CORESIGHT_WriteAPDPReg(AP reg 0x01, 0x80011140)
T4204 005:578.782 - 0.231ms returns 0
T4204 005:578.800 JLINK_CORESIGHT_ReadAPDPReg(AP reg 0x03)
T4204 005:579.105   Value=0x00000000
T4204 005:579.121 - 0.321ms returns 0
T4204 005:579.132 JLINK_CORESIGHT_WriteAPDPReg(AP reg 0x00, 0x80000002)
T4204 005:579.337 - 0.204ms returns 0
T4204 005:579.371 JLINK_CORESIGHT_WriteAPDPReg(AP reg 0x01, 0x80011130)
T4204 005:579.589 - 0.217ms returns 0
T4204 005:579.605 JLINK_CORESIGHT_ReadAPDPReg(AP reg 0x03)
T4204 005:579.863   Value=0xFFFFFFFF
T4204 005:579.879 - 0.274ms returns 0
T4204 005:579.891 JLINK_CORESIGHT_WriteAPDPReg(AP reg 0x00, 0x80000002)
T4204 005:580.104 - 0.212ms returns 0
T4204 005:580.120 JLINK_CORESIGHT_WriteAPDPReg(AP reg 0x01, 0x80011140)
T4204 005:580.320 - 0.200ms returns 0
T4204 005:580.336 JLINK_CORESIGHT_ReadAPDPReg(AP reg 0x03)
T4204 005:580.581   Value=0x00000000
T4204 005:580.597 - 0.260ms returns 0
T4204 005:580.608 JLINK_CORESIGHT_WriteAPDPReg(AP reg 0x00, 0x80000002)
T4204 005:580.810 - 0.202ms returns 0
T4204 005:580.826 JLINK_CORESIGHT_WriteAPDPReg(AP reg 0x01, 0x80011130)
T4204 005:581.079 - 0.253ms returns 0
T4204 005:581.094 JLINK_CORESIGHT_ReadAPDPReg(AP reg 0x03)
T4204 005:581.342   Value=0xFFFFFFEF
T4204 005:581.357 - 0.263ms returns 0
T4204 005:581.368 JLINK_CORESIGHT_WriteAPDPReg(AP reg 0x00, 0x80000002)
T4204 005:581.570 - 0.202ms returns 0
T4204 005:581.586 JLINK_CORESIGHT_WriteAPDPReg(AP reg 0x01, 0x80011140)
T4204 005:581.782 - 0.195ms returns 0
T4204 005:581.798 JLINK_CORESIGHT_ReadAPDPReg(AP reg 0x03)
T4204 005:582.107   Value=0x00000000
T4204 005:582.124 - 0.325ms returns 0
T4204 005:582.135 JLINK_CORESIGHT_WriteAPDPReg(AP reg 0x00, 0x80000002)
T4204 005:582.348 - 0.212ms returns 0
T4204 005:582.364 JLINK_CORESIGHT_WriteAPDPReg(AP reg 0x01, 0x80011130)
T4204 005:582.579 - 0.214ms returns 0
T4204 005:582.595 JLINK_CORESIGHT_ReadAPDPReg(AP reg 0x03)
T4204 005:582.844   Value=0xFFFFFFFF
T4204 005:582.868 - 0.273ms returns 0
T4204 005:582.879 JLINK_CORESIGHT_WriteAPDPReg(AP reg 0x00, 0x80000002)
T4204 005:583.085 - 0.205ms returns 0
T4204 005:583.110 JLINK_CORESIGHT_WriteAPDPReg(AP reg 0x01, 0x80011140)
T4204 005:583.334 - 0.223ms returns 0
T4204 005:583.841 JLINK_CORESIGHT_ReadAPDPReg(AP reg 0x03)
T4204 005:584.119   Value=0x00000000
T4204 005:584.136 - 0.294ms returns 0
T4204 005:584.148 JLINK_CORESIGHT_WriteAPDPReg(AP reg 0x00, 0x80000002)
T4204 005:584.364 - 0.215ms returns 0
T4204 005:584.389 JLINK_CORESIGHT_WriteAPDPReg(AP reg 0x01, 0x80011130)
T4204 005:584.598 - 0.209ms returns 0
T4204 005:584.615 JLINK_CORESIGHT_ReadAPDPReg(AP reg 0x03)
T4204 005:584.949   Value=0xFFFFFFFF
T4204 005:584.974 - 0.358ms returns 0
T4204 005:584.989 JLINK_CORESIGHT_WriteAPDPReg(AP reg 0x00, 0x80000002)
T4204 005:585.201 - 0.211ms returns 0
T4204 005:585.219 JLINK_CORESIGHT_WriteAPDPReg(AP reg 0x01, 0x80011140)
T4204 005:585.428 - 0.209ms returns 0
T4204 005:585.446 JLINK_CORESIGHT_ReadAPDPReg(AP reg 0x03)
T4204 005:585.703   Value=0x00000000
T4204 005:585.717 - 0.271ms returns 0
T4204 005:585.727 JLINK_CORESIGHT_WriteAPDPReg(AP reg 0x00, 0x80000002)
T4204 005:585.959 - 0.231ms returns 0
T4204 005:585.983 JLINK_CORESIGHT_WriteAPDPReg(AP reg 0x01, 0x80011130)
T4204 005:586.195 - 0.213ms returns 0
T4204 005:586.211 JLINK_CORESIGHT_ReadAPDPReg(AP reg 0x03)
T4204 005:586.481   Value=0x000003FA
T4204 005:586.496 - 0.284ms returns 0
T4204 005:586.559 JLINK_CORESIGHT_WriteAPDPReg(AP reg 0x00, 0x80000002)
T4204 005:586.778 - 0.218ms returns 0
T4204 005:586.811 JLINK_CORESIGHT_WriteAPDPReg(AP reg 0x01, 0x80011140)
T4204 005:587.065 - 0.253ms returns 0
T4204 005:587.087 JLINK_CORESIGHT_ReadAPDPReg(AP reg 0x03)
T4204 005:587.406   Value=0x00000002
T4204 005:587.424 - 0.337ms returns 0
T4204 005:587.434 JLINK_CORESIGHT_WriteAPDPReg(AP reg 0x00, 0x80000002)
T4204 005:587.636 - 0.201ms returns 0
T4204 005:587.651 JLINK_CORESIGHT_WriteAPDPReg(AP reg 0x01, 0x80011120)
T4204 005:587.857 - 0.205ms returns 0
T4204 005:587.871 JLINK_CORESIGHT_WriteAPDPReg(AP reg 0x03, 0x39020001)
T4204 005:588.088 - 0.216ms returns 0
T4204 005:588.111 JLINK_CORESIGHT_WriteAPDPReg(AP reg 0x00, 0x80000002)
T4204 005:588.318 - 0.207ms returns 0
T4204 005:588.333 JLINK_CORESIGHT_WriteAPDPReg(AP reg 0x01, 0x80011140)
T4204 005:588.536 - 0.202ms returns 0
T4204 005:588.559 JLINK_CORESIGHT_ReadAPDPReg(AP reg 0x03)
T4204 005:588.809   Value=0x00000002
T4204 005:588.824 - 0.265ms returns 0
T4204 005:588.835 JLINK_CORESIGHT_WriteAPDPReg(AP reg 0x00, 0x80000002)
T4204 005:589.054 - 0.219ms returns 0
T4204 005:589.075 JLINK_CORESIGHT_WriteAPDPReg(AP reg 0x01, 0x80011120)
T4204 005:589.270 - 0.195ms returns 0
T4204 005:589.284 JLINK_CORESIGHT_WriteAPDPReg(AP reg 0x03, 0x0003B312)
T4204 005:589.473 - 0.189ms returns 0
T4204 005:589.487 JLINK_CORESIGHT_WriteAPDPReg(AP reg 0x00, 0x80000002)
T4204 005:589.676 - 0.188ms returns 0
T4204 005:589.692 JLINK_CORESIGHT_WriteAPDPReg(AP reg 0x01, 0x80011140)
T4204 005:589.963 - 0.271ms returns 0
T4204 005:589.977 JLINK_CORESIGHT_ReadAPDPReg(AP reg 0x03)
T4204 005:590.219   Value=0x00000000
T4204 005:590.233 - 0.256ms returns 0
T4204 005:590.243 JLINK_CORESIGHT_WriteAPDPReg(AP reg 0x00, 0x80000002)
T4204 005:590.441 - 0.198ms returns 0
T4204 005:590.455 JLINK_CORESIGHT_WriteAPDPReg(AP reg 0x01, 0x80011130)
T4204 005:590.644 - 0.188ms returns 0
T4204 005:590.657 JLINK_CORESIGHT_ReadAPDPReg(AP reg 0x03)
T4204 005:590.944   Value=0xB90A0081
T4204 005:590.964 - 0.306ms returns 0
T4204 005:590.977 JLINK_CORESIGHT_WriteAPDPReg(AP reg 0x00, 0x80000002)
T4204 005:591.177 - 0.199ms returns 0
T4204 005:591.191 JLINK_CORESIGHT_WriteAPDPReg(AP reg 0x01, 0x80011140)
T4204 005:591.381 - 0.190ms returns 0
T4204 005:591.396 JLINK_CORESIGHT_ReadAPDPReg(AP reg 0x03)
T4204 005:591.659   Value=0x00000000
T4204 005:591.676 - 0.280ms returns 0
T4204 005:591.687 JLINK_CORESIGHT_WriteAPDPReg(AP reg 0x00, 0x80000002)
T4204 005:591.945 - 0.258ms returns 0
T4204 005:591.960 JLINK_CORESIGHT_WriteAPDPReg(AP reg 0x01, 0x80011130)
T4204 005:592.154 - 0.193ms returns 0
T4204 005:592.168 JLINK_CORESIGHT_ReadAPDPReg(AP reg 0x03)
T4204 005:592.459   Value=0xFFFFFFC0
T4204 005:592.482 - 0.314ms returns 0
T4204 005:592.497 JLINK_CORESIGHT_WriteAPDPReg(AP reg 0x00, 0x80000002)
T4204 005:592.726 - 0.228ms returns 0
T4204 005:592.743 JLINK_CORESIGHT_WriteAPDPReg(AP reg 0x01, 0x80011140)
T4204 005:592.945 - 0.202ms returns 0
T4204 005:592.961 JLINK_CORESIGHT_ReadAPDPReg(AP reg 0x03)
T4204 005:593.209   Value=0x00000000
T4204 005:593.224 - 0.262ms returns 0
T4204 005:593.234 JLINK_CORESIGHT_WriteAPDPReg(AP reg 0x00, 0x80000002)
T4204 005:593.427 - 0.193ms returns 0
T4204 005:593.441 JLINK_CORESIGHT_WriteAPDPReg(AP reg 0x01, 0x80011130)
T4204 005:593.635 - 0.194ms returns 0
T4204 005:593.649 JLINK_CORESIGHT_ReadAPDPReg(AP reg 0x03)
T4204 005:593.941   Value=0xFFFFFFFF
T4204 005:593.954 - 0.305ms returns 0
T4204 005:593.963 JLINK_CORESIGHT_WriteAPDPReg(AP reg 0x00, 0x80000002)
T4204 005:594.153 - 0.190ms returns 0
T4204 005:594.167 JLINK_CORESIGHT_WriteAPDPReg(AP reg 0x01, 0x80011140)
T4204 005:594.356 - 0.189ms returns 0
T4204 005:594.371 JLINK_CORESIGHT_ReadAPDPReg(AP reg 0x03)
T4204 005:594.616   Value=0x00000000
T4204 005:594.630 - 0.259ms returns 0
T4204 005:594.640 JLINK_CORESIGHT_WriteAPDPReg(AP reg 0x00, 0x80000002)
T4204 005:594.841 - 0.200ms returns 0
T4204 005:594.862 JLINK_CORESIGHT_WriteAPDPReg(AP reg 0x01, 0x80011130)
T4204 005:595.074 - 0.212ms returns 0
T4204 005:595.093 JLINK_CORESIGHT_ReadAPDPReg(AP reg 0x03)
T4204 005:595.347   Value=0x000385FF
T4204 005:595.363 - 0.269ms returns 0
T4204 005:595.843 JLINK_CORESIGHT_WriteAPDPReg(AP reg 0x00, 0x80000002)
T4204 005:596.891 - 1.054ms returns 0
T4204 005:597.143 JLINK_CORESIGHT_WriteAPDPReg(AP reg 0x01, 0x80011140)
T4204 005:597.934 - 0.791ms returns 0
T4204 005:598.161 JLINK_CORESIGHT_ReadAPDPReg(AP reg 0x03)
T4204 005:598.992   Value=0x00000002
T4204 005:599.197 - 1.035ms returns 0
T4204 005:599.333 JLINK_CORESIGHT_WriteAPDPReg(AP reg 0x00, 0x80000002)
T4204 005:600.088 - 0.752ms returns 0
T4204 005:600.370 JLINK_CORESIGHT_WriteAPDPReg(AP reg 0x01, 0x80011120)
T4204 005:601.323 - 0.954ms returns 0
T4204 005:601.493 JLINK_CORESIGHT_WriteAPDPReg(AP reg 0x03, 0x2C010001)
T4204 005:602.192 - 0.699ms returns 0
T4204 005:602.338 JLINK_CORESIGHT_WriteAPDPReg(AP reg 0x00, 0x80000002)
T4204 005:602.978 - 0.640ms returns 0
T4204 005:603.125 JLINK_CORESIGHT_WriteAPDPReg(AP reg 0x01, 0x80011140)
T4204 005:604.090 - 0.963ms returns 0
T4204 005:604.315 JLINK_CORESIGHT_ReadAPDPReg(AP reg 0x03)
T4204 005:605.131   Value=0x00000002
T4204 005:605.256 - 0.944ms returns 0
T4204 005:605.332 JLINK_CORESIGHT_WriteAPDPReg(AP reg 0x00, 0x80000002)
T4204 005:605.801 - 0.467ms returns 0
T4204 005:605.943 JLINK_CORESIGHT_WriteAPDPReg(AP reg 0x01, 0x80011120)
T4204 005:606.543 - 0.598ms returns 0
T4204 005:606.667 JLINK_CORESIGHT_WriteAPDPReg(AP reg 0x03, 0x000003D3)
T4204 005:607.159 - 0.491ms returns 0
T4204 005:607.261 JLINK_CORESIGHT_WriteAPDPReg(AP reg 0x00, 0x80000002)
T4204 005:607.718 - 0.457ms returns 0
T4204 005:607.815 JLINK_CORESIGHT_WriteAPDPReg(AP reg 0x01, 0x80011140)
T4204 005:608.437 - 0.622ms returns 0
T4204 005:608.543 JLINK_CORESIGHT_ReadAPDPReg(AP reg 0x03)
T4204 005:609.017   Value=0x00000002
T4204 005:609.076 - 0.534ms returns 0
T4204 005:609.149 JLINK_CORESIGHT_ReadAPDPReg(AP reg 0x03)
T4204 005:609.559   Value=0x00000002
T4204 005:609.632 - 0.482ms returns 0
T4204 005:609.703 JLINK_CORESIGHT_ReadAPDPReg(AP reg 0x03)
T4204 005:610.140   Value=0x00000000
T4204 005:610.206 - 0.503ms returns 0
T4204 005:610.272 JLINK_CORESIGHT_WriteAPDPReg(AP reg 0x00, 0x80000002)
T4204 005:610.562 - 0.290ms returns 0
T4204 005:610.622 JLINK_CORESIGHT_WriteAPDPReg(AP reg 0x01, 0x80011130)
T4204 005:610.995 - 0.372ms returns 0
T4204 005:611.061 JLINK_CORESIGHT_ReadAPDPReg(AP reg 0x03)
T4204 005:611.445   Value=0x2C020081
T4204 005:611.514 - 0.453ms returns 0
T4204 005:611.589 JLINK_CORESIGHT_WriteAPDPReg(AP reg 0x00, 0x80000002)
T4204 005:611.992 - 0.402ms returns 0
T4204 005:612.058 JLINK_CORESIGHT_WriteAPDPReg(AP reg 0x01, 0x80011140)
T4204 005:612.371 - 0.311ms returns 0
T4204 005:612.473 JLINK_CORESIGHT_ReadAPDPReg(AP reg 0x03)
T4204 005:612.861   Value=0x00000000
T4204 005:612.910 - 0.437ms returns 0
T4204 005:612.959 JLINK_CORESIGHT_WriteAPDPReg(AP reg 0x00, 0x80000002)
T4204 005:613.299 - 0.339ms returns 0
T4204 005:613.412 JLINK_CORESIGHT_WriteAPDPReg(AP reg 0x01, 0x80011130)
T4204 005:613.710 - 0.298ms returns 0
T4204 005:613.777 JLINK_CORESIGHT_ReadAPDPReg(AP reg 0x03)
T4204 005:614.195   Value=0x0003CE04
T4204 005:614.242 - 0.465ms returns 0
T4204 005:614.299 JLINK_CORESIGHT_WriteAPDPReg(AP reg 0x00, 0x80000002)
T4204 005:614.609 - 0.310ms returns 0
T4204 005:614.676 JLINK_CORESIGHT_WriteAPDPReg(AP reg 0x01, 0x80011140)
T4204 005:615.094 - 0.418ms returns 0
T4204 005:615.163 JLINK_CORESIGHT_ReadAPDPReg(AP reg 0x03)
T4204 005:615.545   Value=0x00000002
T4204 005:615.623 - 0.460ms returns 0
T4204 005:615.666 JLINK_CORESIGHT_WriteAPDPReg(AP reg 0x00, 0x80000002)
T4204 005:615.978 - 0.311ms returns 0
T4204 005:616.052 JLINK_CORESIGHT_WriteAPDPReg(AP reg 0x01, 0x80011120)
T4204 005:616.371 - 0.318ms returns 0
T4204 005:616.430 JLINK_CORESIGHT_WriteAPDPReg(AP reg 0x03, 0x73010001)
T4204 005:616.729 - 0.299ms returns 0
T4204 005:616.809 JLINK_CORESIGHT_WriteAPDPReg(AP reg 0x00, 0x80000002)
T4204 005:617.119 - 0.310ms returns 0
T4204 005:617.186 JLINK_CORESIGHT_WriteAPDPReg(AP reg 0x01, 0x80011140)
T4204 005:617.446 - 0.260ms returns 0
T4204 005:617.499 JLINK_CORESIGHT_ReadAPDPReg(AP reg 0x03)
T4204 005:617.816   Value=0x00000002
T4204 005:617.852 - 0.352ms returns 0
T4204 005:617.890 JLINK_CORESIGHT_WriteAPDPReg(AP reg 0x00, 0x80000002)
T4204 005:618.174 - 0.284ms returns 0
T4204 005:618.222 JLINK_CORESIGHT_WriteAPDPReg(AP reg 0x01, 0x80011120)
T4204 005:618.510 - 0.288ms returns 0
T4204 005:618.560 JLINK_CORESIGHT_WriteAPDPReg(AP reg 0x03, 0x0000038C)
T4204 005:618.865 - 0.304ms returns 0
T4204 005:618.913 JLINK_CORESIGHT_WriteAPDPReg(AP reg 0x00, 0x80000002)
T4204 005:619.188 - 0.274ms returns 0
T4204 005:619.238 JLINK_CORESIGHT_WriteAPDPReg(AP reg 0x01, 0x80011140)
T4204 005:619.500 - 0.261ms returns 0
T4204 005:619.548 JLINK_CORESIGHT_ReadAPDPReg(AP reg 0x03)
T4204 005:619.895   Value=0x00000002
T4204 005:619.942 - 0.394ms returns 0
T4204 005:619.980 JLINK_CORESIGHT_ReadAPDPReg(AP reg 0x03)
T4204 005:620.362   Value=0x00000002
T4204 005:620.418 - 0.438ms returns 0
T4204 005:620.469 JLINK_CORESIGHT_ReadAPDPReg(AP reg 0x03)
T4204 005:620.809   Value=0x00000002
T4204 005:620.851 - 0.382ms returns 0
T4204 005:620.889 JLINK_CORESIGHT_ReadAPDPReg(AP reg 0x03)
T4204 005:621.269   Value=0x00000000
T4204 005:621.308 - 0.418ms returns 0
T4204 005:621.359 JLINK_CORESIGHT_WriteAPDPReg(AP reg 0x00, 0x80000002)
T4204 005:621.685 - 0.326ms returns 0
T4204 005:621.738 JLINK_CORESIGHT_WriteAPDPReg(AP reg 0x01, 0x80011130)
T4204 005:622.117 - 0.378ms returns 0
T4204 005:622.191 JLINK_CORESIGHT_ReadAPDPReg(AP reg 0x03)
T4204 005:622.535   Value=0x73020081
T4204 005:622.577 - 0.387ms returns 0
T4204 005:622.618 JLINK_CORESIGHT_WriteAPDPReg(AP reg 0x00, 0x80000002)
T4204 005:622.981 - 0.362ms returns 0
T4204 005:623.044 JLINK_CORESIGHT_WriteAPDPReg(AP reg 0x01, 0x80011140)
T4204 005:623.436 - 0.391ms returns 0
T4204 005:623.511 JLINK_CORESIGHT_ReadAPDPReg(AP reg 0x03)
T4204 005:623.841   Value=0x00000000
T4204 005:623.878 - 0.367ms returns 0
T4204 005:623.928 JLINK_CORESIGHT_WriteAPDPReg(AP reg 0x00, 0x80000002)
T4204 005:624.192 - 0.264ms returns 0
T4204 005:624.269 JLINK_CORESIGHT_WriteAPDPReg(AP reg 0x01, 0x80011130)
T4204 005:624.576 - 0.307ms returns 0
T4204 005:624.628 JLINK_CORESIGHT_ReadAPDPReg(AP reg 0x03)
T4204 005:624.957   Value=0x00038902
T4204 005:624.985 - 0.357ms returns 0
T4204 005:625.016 JLINK_CORESIGHT_WriteAPDPReg(AP reg 0x00, 0x80000002)
T4204 005:625.268 - 0.252ms returns 0
T4204 005:625.305 JLINK_CORESIGHT_WriteAPDPReg(AP reg 0x01, 0x80011140)
T4204 005:625.544 - 0.238ms returns 0
T4204 005:625.582 JLINK_CORESIGHT_ReadAPDPReg(AP reg 0x03)
T4204 005:625.878   Value=0x00000002
T4204 005:625.905 - 0.322ms returns 0
T4204 005:625.933 JLINK_CORESIGHT_WriteAPDPReg(AP reg 0x00, 0x80000002)
T4204 005:626.193 - 0.260ms returns 0
T4204 005:626.230 JLINK_CORESIGHT_WriteAPDPReg(AP reg 0x01, 0x80011120)
T4204 005:626.488 - 0.258ms returns 0
T4204 005:626.526 JLINK_CORESIGHT_WriteAPDPReg(AP reg 0x03, 0x75010001)
T4204 005:626.777 - 0.250ms returns 0
T4204 005:626.818 JLINK_CORESIGHT_WriteAPDPReg(AP reg 0x00, 0x80000002)
T4204 005:627.083 - 0.264ms returns 0
T4204 005:627.121 JLINK_CORESIGHT_WriteAPDPReg(AP reg 0x01, 0x80011140)
T4204 005:627.387 - 0.265ms returns 0
T4204 005:627.427 JLINK_CORESIGHT_ReadAPDPReg(AP reg 0x03)
T4204 005:627.718   Value=0x00000002
T4204 005:627.746 - 0.319ms returns 0
T4204 005:627.775 JLINK_CORESIGHT_WriteAPDPReg(AP reg 0x00, 0x80000002)
T4204 005:628.078 - 0.302ms returns 0
T4204 005:628.117 JLINK_CORESIGHT_WriteAPDPReg(AP reg 0x01, 0x80011120)
T4204 005:628.362 - 0.244ms returns 0
T4204 005:628.403 JLINK_CORESIGHT_WriteAPDPReg(AP reg 0x03, 0x0000038A)
T4204 005:628.681 - 0.278ms returns 0
T4204 005:628.723 JLINK_CORESIGHT_WriteAPDPReg(AP reg 0x00, 0x80000002)
T4204 005:628.993 - 0.269ms returns 0
T4204 005:629.040 JLINK_CORESIGHT_WriteAPDPReg(AP reg 0x01, 0x80011140)
T4204 005:629.303 - 0.262ms returns 0
T4204 005:629.343 JLINK_CORESIGHT_ReadAPDPReg(AP reg 0x03)
T4204 005:629.639   Value=0x00000002
T4204 005:629.667 - 0.323ms returns 0
T4204 005:629.696 JLINK_CORESIGHT_ReadAPDPReg(AP reg 0x03)
T4204 005:630.017   Value=0x00000000
T4204 005:630.059 - 0.362ms returns 0
T4204 005:630.103 JLINK_CORESIGHT_WriteAPDPReg(AP reg 0x00, 0x80000002)
T4204 005:630.381 - 0.278ms returns 0
T4204 005:630.425 JLINK_CORESIGHT_WriteAPDPReg(AP reg 0x01, 0x80011130)
T4204 005:630.697 - 0.273ms returns 0
T4204 005:630.737 JLINK_CORESIGHT_ReadAPDPReg(AP reg 0x03)
T4204 005:631.051   Value=0x75020081
T4204 005:631.078 - 0.341ms returns 0
T4204 005:631.109 JLINK_CORESIGHT_WriteAPDPReg(AP reg 0x00, 0x80000002)
T4204 005:631.394 - 0.285ms returns 0
T4204 005:631.468 JLINK_CORESIGHT_WriteAPDPReg(AP reg 0x01, 0x80011140)
T4204 005:631.774 - 0.306ms returns 0
T4204 005:631.834 JLINK_CORESIGHT_ReadAPDPReg(AP reg 0x03)
T4204 005:632.165   Value=0x00000000
T4204 005:632.214 - 0.379ms returns 0
T4204 005:632.259 JLINK_CORESIGHT_WriteAPDPReg(AP reg 0x00, 0x80000002)
T4204 005:632.537 - 0.277ms returns 0
T4204 005:632.592 JLINK_CORESIGHT_WriteAPDPReg(AP reg 0x01, 0x80011130)
T4204 005:632.922 - 0.330ms returns 0
T4204 005:632.994 JLINK_CORESIGHT_ReadAPDPReg(AP reg 0x03)
T4204 005:633.343   Value=0x00038702
T4204 005:633.407 - 0.412ms returns 0
T4204 005:633.480 JLINK_CORESIGHT_WriteAPDPReg(AP reg 0x00, 0x80000002)
T4204 005:633.787 - 0.306ms returns 0
T4204 005:633.848 JLINK_CORESIGHT_WriteAPDPReg(AP reg 0x01, 0x80011140)
T4204 005:634.130 - 0.281ms returns 0
T4204 005:634.180 JLINK_CORESIGHT_ReadAPDPReg(AP reg 0x03)
T4204 005:634.495   Value=0x00000002
T4204 005:634.538 - 0.357ms returns 0
T4204 005:634.567 JLINK_CORESIGHT_WriteAPDPReg(AP reg 0x00, 0x80000002)
T4204 005:634.813 - 0.246ms returns 0
T4204 005:634.848 JLINK_CORESIGHT_WriteAPDPReg(AP reg 0x01, 0x80011120)
T4204 005:635.084 - 0.236ms returns 0
T4204 005:635.117 JLINK_CORESIGHT_WriteAPDPReg(AP reg 0x03, 0x4F010001)
T4204 005:635.378 - 0.260ms returns 0
T4204 005:635.411 JLINK_CORESIGHT_WriteAPDPReg(AP reg 0x00, 0x80000002)
T4204 005:635.638 - 0.226ms returns 0
T4204 005:635.680 JLINK_CORESIGHT_WriteAPDPReg(AP reg 0x01, 0x80011140)
T4204 005:635.955 - 0.275ms returns 0
T4204 005:635.990 JLINK_CORESIGHT_ReadAPDPReg(AP reg 0x03)
T4204 005:636.304   Value=0x00000002
T4204 005:636.340 - 0.348ms returns 0
T4204 005:636.375 JLINK_CORESIGHT_WriteAPDPReg(AP reg 0x00, 0x80000002)
T4204 005:636.611 - 0.237ms returns 0
T4204 005:636.646 JLINK_CORESIGHT_WriteAPDPReg(AP reg 0x01, 0x80011120)
T4204 005:636.970 - 0.324ms returns 0
T4204 005:637.006 JLINK_CORESIGHT_WriteAPDPReg(AP reg 0x03, 0x000003B0)
T4204 005:637.256 - 0.250ms returns 0
T4204 005:637.290 JLINK_CORESIGHT_WriteAPDPReg(AP reg 0x00, 0x80000002)
T4204 005:637.550 - 0.260ms returns 0
T4204 005:637.583 JLINK_CORESIGHT_WriteAPDPReg(AP reg 0x01, 0x80011140)
T4204 005:637.849 - 0.266ms returns 0
T4204 005:637.895 JLINK_CORESIGHT_ReadAPDPReg(AP reg 0x03)
T4204 005:638.203   Value=0x00000002
T4204 005:638.236 - 0.341ms returns 0
T4204 005:638.269 JLINK_CORESIGHT_ReadAPDPReg(AP reg 0x03)
T4204 005:638.574   Value=0x00000000
T4204 005:638.606 - 0.336ms returns 0
T4204 005:638.641 JLINK_CORESIGHT_WriteAPDPReg(AP reg 0x00, 0x80000002)
T4204 005:638.972 - 0.330ms returns 0
T4204 005:639.022 JLINK_CORESIGHT_WriteAPDPReg(AP reg 0x01, 0x80011130)
T4204 005:639.349 - 0.326ms returns 0
T4204 005:639.397 JLINK_CORESIGHT_ReadAPDPReg(AP reg 0x03)
T4204 005:639.705   Value=0x4F0B0081
T4204 005:639.743 - 0.347ms returns 0
T4204 005:639.777 JLINK_CORESIGHT_WriteAPDPReg(AP reg 0x00, 0x80000002)
T4204 005:640.091 - 0.312ms returns 0
T4204 005:640.136 JLINK_CORESIGHT_WriteAPDPReg(AP reg 0x01, 0x80011140)
T4204 005:640.409 - 0.273ms returns 0
T4204 005:640.459 JLINK_CORESIGHT_ReadAPDPReg(AP reg 0x03)
T4204 005:640.769   Value=0x00000000
T4204 005:640.803 - 0.344ms returns 0
T4204 005:640.838 JLINK_CORESIGHT_WriteAPDPReg(AP reg 0x00, 0x80000002)
T4204 005:641.091 - 0.252ms returns 0
T4204 005:641.134 JLINK_CORESIGHT_WriteAPDPReg(AP reg 0x01, 0x80011130)
T4204 005:641.399 - 0.264ms returns 0
T4204 005:641.448 JLINK_CORESIGHT_ReadAPDPReg(AP reg 0x03)
T4204 005:641.759   Value=0xE03F0000
T4204 005:641.792 - 0.344ms returns 0
T4204 005:641.819 JLINK_CORESIGHT_WriteAPDPReg(AP reg 0x00, 0x80000002)
T4204 005:642.064 - 0.245ms returns 0
T4204 005:642.101 JLINK_CORESIGHT_WriteAPDPReg(AP reg 0x01, 0x80011140)
T4204 005:642.328 - 0.227ms returns 0
T4204 005:642.360 JLINK_CORESIGHT_ReadAPDPReg(AP reg 0x03)
T4204 005:642.647   Value=0x00000000
T4204 005:642.666 - 0.306ms returns 0
T4204 005:642.687 JLINK_CORESIGHT_WriteAPDPReg(AP reg 0x00, 0x80000002)
T4204 005:642.954 - 0.267ms returns 0
T4204 005:642.984 JLINK_CORESIGHT_WriteAPDPReg(AP reg 0x01, 0x80011130)
T4204 005:643.236 - 0.252ms returns 0
T4204 005:643.265 JLINK_CORESIGHT_ReadAPDPReg(AP reg 0x03)
T4204 005:643.557   Value=0x00000000
T4204 005:643.577 - 0.313ms returns 0
T4204 005:643.598 JLINK_CORESIGHT_WriteAPDPReg(AP reg 0x00, 0x80000002)
T4204 005:643.847 - 0.249ms returns 0
T4204 005:643.875 JLINK_CORESIGHT_WriteAPDPReg(AP reg 0x01, 0x80011140)
T4204 005:644.100 - 0.224ms returns 0
T4204 005:644.129 JLINK_CORESIGHT_ReadAPDPReg(AP reg 0x03)
T4204 005:644.396   Value=0x00000000
T4204 005:644.416 - 0.287ms returns 0
T4204 005:644.436 JLINK_CORESIGHT_WriteAPDPReg(AP reg 0x00, 0x80000002)
T4204 005:644.716 - 0.279ms returns 0
T4204 005:644.746 JLINK_CORESIGHT_WriteAPDPReg(AP reg 0x01, 0x80011130)
T4204 005:644.972 - 0.226ms returns 0
T4204 005:645.001 JLINK_CORESIGHT_ReadAPDPReg(AP reg 0x03)
T4204 005:645.269   Value=0x03870000
T4204 005:645.291 - 0.290ms returns 0
T4204 005:646.135 JLINK_CORESIGHT_WriteAPDPReg(AP reg 0x00, 0x80000002)
T4204 005:646.407 - 0.272ms returns 0
T4204 005:646.437 JLINK_CORESIGHT_WriteAPDPReg(AP reg 0x01, 0x80011140)
T4204 005:646.686 - 0.248ms returns 0
T4204 005:646.713 JLINK_CORESIGHT_ReadAPDPReg(AP reg 0x03)
T4204 005:647.013   Value=0x00000002
T4204 005:647.049 - 0.335ms returns 0
T4204 005:647.069 JLINK_CORESIGHT_WriteAPDPReg(AP reg 0x00, 0x80000002)
